!Created with skrf (http://scikit-rf.org).
# Hz S RI R 50.0 
!freq ReS11 ImS11
146000000000.0 -0.4798903524 0.5531396145
146009250000.0 -0.4617431999 0.5562376984
146018500000.0 -0.441550125 0.5722123
146027750000.0 -0.4107624875 0.5931441175
146037000000.0 -0.3839519013 0.6105708083
146046250000.0 -0.3429770258 0.6364664991
146055500000.0 -0.2849167753 0.6618134075
146064750000.0 -0.2416683279 0.6793449939
146074000000.0 -0.1974051616 0.6939235117
146083250000.0 -0.1721999574 0.6963487913
146092500000.0 -0.1173296184 0.7057231059
146101750000.0 -0.07221129574 0.7113539362
146111000000.0 -0.03483372692 0.7147382111
146120250000.0 0.001190836436 0.7148304263
146129500000.0 0.05481870129 0.7131109554
146138750000.0 0.09685514292 0.7099242844
146148000000.0 0.1605123035 0.6970016238
146157250000.0 0.2007188134 0.683766249
146166500000.0 0.2459188898 0.6706550722
146175750000.0 0.2714468119 0.6617175291
146185000000.0 0.3174376913 0.6392899452
146194250000.0 0.3766380564 0.6056856597
146203500000.0 0.4123104903 0.5832172517
146212750000.0 0.4480048685 0.555088637
146222000000.0 0.4711478067 0.5360420874
146231250000.0 0.5121226469 0.4969450477
146240500000.0 0.5469567613 0.4607491572
146249750000.0 0.5676522996 0.4357317295
146259000000.0 0.6062379643 0.3793093722
146268250000.0 0.6246903638 0.3423001708
146277500000.0 0.6416103996 0.3013748548
146286750000.0 0.6591030288 0.2568448
146296000000.0 0.671464438 0.2171440998
146305250000.0 0.6848283787 0.1731504286
146314500000.0 0.6905872113 0.1454475252
146323750000.0 0.6989405372 0.09459016554
146333000000.0 0.7023427056 0.05524578635
146342250000.0 0.7059680502 0.0191903672
146351500000.0 0.7063973543 -0.01138635193
146360750000.0 0.7046718954 -0.06071092531
146370000000.0 0.7001377843 -0.09613144068
146379250000.0 0.6964315666 -0.1412233457
146388500000.0 0.6835959785 -0.1878008728
146397750000.0 0.673736284 -0.2236730944
146407000000.0 0.6627516914 -0.2553371633
146416250000.0 0.6423956726 -0.2997683105
146425500000.0 0.6254025832 -0.3311151917
146434750000.0 0.6020894097 -0.3700678855
146444000000.0 0.5748594172 -0.4101308947
146453250000.0 0.5488412896 -0.4413758039
146462500000.0 0.5385078036 -0.452802381
146471750000.0 0.5092489721 -0.4836378169
146481000000.0 0.4949242397 -0.494616351
146490250000.0 0.4693864198 -0.5197355747
146499500000.0 0.4389559135 -0.5462985748
146508750000.0 0.4156739833 -0.5644531595
146518000000.0 0.3749267222 -0.5879374839
146527250000.0 0.3610266092 -0.5985047131
146536500000.0 0.3232197362 -0.6188871496
146545750000.0 0.2930204722 -0.6357729482
146555000000.0 0.2623771806 -0.6497430855
146564250000.0 0.2326736876 -0.6576714749
146573500000.0 0.1947396929 -0.6713253756
146582750000.0 0.14187646 -0.6831559664
146592000000.0 0.1307686556 -0.6872426685
146601250000.0 0.07903222284 -0.6948720104
146610500000.0 0.03268357818 -0.6947035716
146619750000.0 0.005341856675 -0.6979981674
146629000000.0 -0.03789162074 -0.6993530749
146638250000.0 -0.0920146577 -0.6918084104
146647500000.0 -0.134448808 -0.6865664476
146656750000.0 -0.1706541384 -0.6775206275
146666000000.0 -0.1970088619 -0.6706671186
146675250000.0 -0.2402606556 -0.6543109407
146684500000.0 -0.2815992842 -0.6359206051
146693750000.0 -0.3042134823 -0.6219526517
146703000000.0 -0.3395827122 -0.598038847
146712250000.0 -0.3823152057 -0.5617277051
146721500000.0 -0.410265202 -0.5312192844
146730750000.0 -0.4295843111 -0.5028807375
146740000000.0 -0.4417302228 -0.4739657932
146749250000.0 -0.4610814558 -0.4431642424
146758500000.0 -0.4678829043 -0.4275467367
146767750000.0 -0.481197673 -0.4059387687
146777000000.0 -0.5127372972 -0.3718310687
146786250000.0 -0.5384194982 -0.3406857365
146795500000.0 -0.5522263393 -0.3271684678
146804750000.0 -0.5805407229 -0.2801209887
146814000000.0 -0.5959990535 -0.2594766655
146823250000.0 -0.6114807021 -0.2257996082
146832500000.0 -0.6309129491 -0.1787896421
146841750000.0 -0.6413434759 -0.1422743448
146851000000.0 -0.6515602664 -0.102993685
146860250000.0 -0.6585282516 -0.06346758767
146869500000.0 -0.6622038954 -0.01260529673
146878750000.0 -0.6616470117 0.02841660214
146888000000.0 -0.6563791948 0.0719953404
146897250000.0 -0.64682834 0.1137827166
146906500000.0 -0.6409672183 0.1414262684
146915750000.0 -0.6289001368 0.1879314111
146925000000.0 -0.6194704509 0.2279982597
146934250000.0 -0.6103253709 0.2543026488
146943500000.0 -0.5838827647 0.3099105681
146952750000.0 -0.5692824084 0.3427618806
146962000000.0 -0.5496468865 0.3794994383
146971250000.0 -0.5235705696 0.4179082458
146980500000.0 -0.4997552146 0.4454461623
146989750000.0 -0.4694612346 0.4762235497
146999000000.0 -0.4331735516 0.5124617789
147008250000.0 -0.3903100267 0.5441764992
147017500000.0 -0.3590769174 0.5648805615
147026750000.0 -0.31815847 0.5889938722
147036000000.0 -0.2939154664 0.601668207
147045250000.0 -0.2398413549 0.6242414754
147054500000.0 -0.2065741231 0.6393086137
147063750000.0 -0.1699297317 0.6500889099
147073000000.0 -0.1245592087 0.6596619555
147082250000.0 -0.0811612727 0.6719190326
147091500000.0 -0.05376002346 0.6759943223
147100750000.0 -0.006264783092 0.6791804297
147110000000.0 0.03942849294 0.6791007541
147119250000.0 0.09532478707 0.6752643503
147128500000.0 0.1539334676 0.6630357338
147137750000.0 0.1820084369 0.6581690422
147147000000.0 0.2358785691 0.6479715542
147156250000.0 0.2841185754 0.625958551
147165500000.0 0.3231470701 0.6061769572
147174750000.0 0.3707458324 0.5797443545
147184000000.0 0.4188439584 0.5479895146
147193250000.0 0.4512590982 0.5217215114
147202500000.0 0.4906736778 0.4858225551
147211750000.0 0.5330500968 0.4376875149
147221000000.0 0.5589828074 0.3998738085
147230250000.0 0.5917993543 0.3470591489
147239500000.0 0.6169247774 0.2944155346
147248750000.0 0.6250063187 0.2748861059
147258000000.0 0.6428747123 0.2323827414
147267250000.0 0.6554750073 0.1835553478
147276500000.0 0.6640670077 0.1516348166
147285750000.0 0.671000333 0.08623141521
147295000000.0 0.6754765367 0.0392886556
147304250000.0 0.6758093284 -0.007987600203
147313500000.0 0.6721895492 -0.04756410233
147322750000.0 0.6680190856 -0.08481307012
147332000000.0 0.6603133087 -0.1380809155
147341250000.0 0.6520494505 -0.1666143188
147350500000.0 0.6370238759 -0.2117249275
147359750000.0 0.6217660375 -0.2526673974
147369000000.0 0.6048540326 -0.2982547915
147378250000.0 0.5853836385 -0.3349012259
147387500000.0 0.5575954238 -0.3758544742
147396750000.0 0.5266456877 -0.4137736045
147406000000.0 0.498309536 -0.4537144234
147415250000.0 0.4518013289 -0.4963994003
147424500000.0 0.4311653888 -0.5170354813
147433750000.0 0.3874705539 -0.5490754555
147443000000.0 0.3480156433 -0.5754811474
147452250000.0 0.3131153087 -0.6010074844
147461500000.0 0.278279715 -0.6156446845
147470750000.0 0.2361410195 -0.6358298693
147480000000.0 0.1741092477 -0.6535271472
147489250000.0 0.1305008865 -0.6638863111
147498500000.0 0.07742983491 -0.6699307359
147507750000.0 0.01188578609 -0.67729252
147517000000.0 -0.04556502723 -0.6708994529
147526250000.0 -0.08963925461 -0.6697279894
147535500000.0 -0.1541982075 -0.6563589061
147544750000.0 -0.2063752864 -0.6375051699
147554000000.0 -0.273221161 -0.6109969424
147563250000.0 -0.3074254438 -0.5918956554
147572500000.0 -0.3459257268 -0.5640254051
147581750000.0 -0.3884353258 -0.5269850662
147591000000.0 -0.4261455807 -0.4928584865
147600250000.0 -0.3398008514 -0.5703210793
147609500000.0 -0.3857237848 -0.5446625132
147618750000.0 -0.425631247 -0.525041609
147628000000.0 -0.4776400984 -0.4834159792
147637250000.0 -0.5201472318 -0.4414903507
147646500000.0 -0.5579939778 -0.4027379731
147655750000.0 -0.5995856522 -0.3496709369
147665000000.0 -0.6280730184 -0.2972390159
147674250000.0 -0.6518068309 -0.2429683572
147683500000.0 -0.6729203666 -0.1849593217
147692750000.0 -0.6904903466 -0.105544325
147702000000.0 -0.7025076221 -0.04607604992
147711250000.0 -0.7051236722 0.008692739655
147720500000.0 -0.7080773044 0.07665213503
147729750000.0 -0.7006543723 0.1302686579
147739000000.0 -0.6875281903 0.17792177
147748250000.0 -0.6679821009 0.2455612655
147757500000.0 -0.6453521931 0.3129277083
147766750000.0 -0.6087769454 0.3821192221
147776000000.0 -0.5798113849 0.4308619735
147785250000.0 -0.5453010802 0.4778833872
147794500000.0 -0.4956572762 0.5305553212
147803750000.0 -0.436174806 0.5794644333
147813000000.0 -0.3889848478 0.6156877277
147822250000.0 -0.3193776966 0.6571457288
147831500000.0 -0.2488396937 0.6883712298
147840750000.0 -0.1637692454 0.7126455824
147850000000.0 -0.08460838631 0.7299720271
147859250000.0 -0.004494731253 0.735299583
147868500000.0 0.05033393829 0.7300053485
147877750000.0 0.1078034553 0.7231543758
147887000000.0 -0.7086324974 0.1913556999
147896250000.0 -0.687814487 0.2406492061
147905500000.0 -0.6614990729 0.3075356933
147914750000.0 -0.629211724 0.3733654401
147924000000.0 -0.5918886107 0.4335755223
147933250000.0 -0.5371671968 0.4970824194
147942500000.0 -0.4931707781 0.5426574501
147951750000.0 -0.4495774573 0.5770584562
147961000000.0 -0.3849896211 0.625904025
147970250000.0 -0.3132616624 0.6608997097
147979500000.0 -0.2614029688 0.6851738509
147988750000.0 -0.1909555256 0.7033743318
147998000000.0 -0.13959845 0.7145546262
148007250000.0 -0.056217603 0.720075841
148016500000.0 -0.0117370372 0.7219126766
148025750000.0 0.04246824665 0.7162414801
148035000000.0 0.09207443199 0.7149279249
148044250000.0 0.1520694747 0.7039629871
148053500000.0 0.2123048122 0.6922146079
148062750000.0 0.2645220106 0.6829887252
148072000000.0 0.3185123606 0.6615259837
148081250000.0 0.3922024098 0.6259629892
148090500000.0 0.443440289 0.5970990133
148099750000.0 0.4809153213 0.5678405692
148109000000.0 0.5302105887 0.5237890258
148118250000.0 0.5746533597 0.4797619275
148127500000.0 0.609799977 0.4351382838
148136750000.0 0.6489185031 0.3771514743
148146000000.0 0.6754432153 0.3217227018
148155250000.0 0.7018128031 0.2618827482
148164500000.0 0.720327055 0.2119827636
148173750000.0 0.7322042114 0.1748795859
148183000000.0 0.7427102573 0.1088414569
148192250000.0 0.7485329854 0.080066526
148201500000.0 0.7528965443 0.003102557233
148210750000.0 0.7516926751 -0.03747936477
148220000000.0 0.7459700523 -0.0964420416
148229250000.0 0.7396017121 -0.1493821674
148238500000.0 0.7285149713 -0.1977959313
148247750000.0 0.7141940783 -0.237428791
148257000000.0 0.6984204268 -0.2881779088
148266250000.0 0.6702864229 -0.3451929721
148275500000.0 0.6427934869 -0.3935267433
148284750000.0 0.6117330433 -0.4437190127
148294000000.0 0.5887146202 -0.4739112319
148303250000.0 0.5551892354 -0.516188074
148312500000.0 0.5107758408 -0.563402583
148321750000.0 0.4669167234 -0.5985138712
148331000000.0 0.4217704333 -0.6304325004
148340250000.0 0.3764222067 -0.6565589756
148349500000.0 0.3418974957 -0.6788520761
148358750000.0 0.2893848424 -0.7041524191
148368000000.0 0.2392473456 -0.7239094269
148377250000.0 0.2025783681 -0.7330798678
148386500000.0 0.1340642025 -0.7520115183
148395750000.0 0.08822344561 -0.7571456972
148405000000.0 0.02525279123 -0.7636229485
148414250000.0 -0.02221102977 -0.7628571189
148423500000.0 -0.06837464533 -0.759883198
148432750000.0 -0.140134587 -0.7511474856
148442000000.0 -0.1996245598 -0.7369710795
148451250000.0 -0.2595204835 -0.7168749397
148460500000.0 -0.3109860123 -0.6977868263
148469750000.0 -0.3628757026 -0.6718216044
148479000000.0 -0.4264553362 -0.634515962
148488250000.0 -0.4661662513 -0.6043141267
148497500000.0 -0.5224578589 -0.5586779479
148506750000.0 -0.5669294075 -0.5118622043
148516000000.0 -0.6074522596 -0.4649298708
148525250000.0 -0.647557044 -0.4108112721
148534500000.0 -0.6770069982 -0.3555363559
148543750000.0 -0.7095110422 -0.283975744
148553000000.0 -0.7288452974 -0.2295942369
148562250000.0 -0.7462391599 -0.1637454343
148571500000.0 -0.7565774011 -0.1010729822
148580750000.0 -0.7636729659 -0.03507250709
148590000000.0 -0.7630110457 0.02502774822
148599250000.0 -0.7578019816 0.1045802575
148608500000.0 -0.7421973326 0.1732393679
148617750000.0 -0.7253806425 0.2385985638
148627000000.0 -0.6938863157 0.3136563771
148636250000.0 -0.6610159472 0.3780935623
148645500000.0 -0.6249434799 0.4342794641
148654750000.0 -0.5793794742 0.4919216116
148664000000.0 -0.53343907 0.5393896946
148673250000.0 -0.4819722379 0.5872708085
148682500000.0 -0.4282809708 0.6244275259
148691750000.0 -0.3603783909 0.6658448792
148701000000.0 -0.3123999192 0.685204918
148710250000.0 -0.2404863326 0.7138483948
148719500000.0 -0.1910768706 0.7267208971
148728750000.0 -0.1179946031 0.7428302286
148738000000.0 -0.05188652017 0.7507990547
148747250000.0 0.009967478492 0.754590936
148756500000.0 0.09258217889 0.7487636994
148765750000.0 0.1721834728 0.7346161764
148775000000.0 0.2219198794 0.7226877347
148784250000.0 0.2658309515 0.7082999874
148793500000.0 0.3224169572 0.681050305
148802750000.0 0.3930338607 0.6478971622
148812000000.0 0.4408260705 0.6211899922
148821250000.0 0.4798666469 0.5861932509
148830500000.0 0.530721083 0.5450766008
148839750000.0 0.5790339668 0.4980893891
148849000000.0 0.6141045718 0.4541197755
148858250000.0 0.6496353015 0.4054015397
148867500000.0 0.6763212669 0.3519171754
148876750000.0 0.7022854322 0.3101292709
148886000000.0 0.7217777705 0.2562057399
148895250000.0 0.7436989108 0.1960432446
148904500000.0 0.7514652017 0.1495033715
148913750000.0 0.7612172532 0.1050827561
148923000000.0 0.7671295194 0.04682042836
148932250000.0 0.7691544486 -0.02210923383
148941500000.0 0.768852724 -0.06490812357
148950750000.0 0.7626102021 -0.1236950703
148960000000.0 0.7526921775 -0.1730631095
148969250000.0 0.7406671528 -0.2236126157
148978500000.0 0.7202028569 -0.276041754
148987750000.0 0.701549613 -0.3209105886
148997000000.0 0.6733853169 -0.3731272235
149006250000.0 0.6420339271 -0.4193780877
149015500000.0 0.6159608508 -0.4570997902
149024750000.0 0.5852171722 -0.4896626926
149034000000.0 0.5426385351 -0.5302972738
149043250000.0 0.5180895096 -0.551642721
149052500000.0 0.4838144275 -0.5766616633
149061750000.0 0.442063719 -0.6027082868
149071000000.0 0.3893969629 -0.6364377567
149080250000.0 0.3562466732 -0.6463566972
149089500000.0 0.328010979 -0.6596415963
149098750000.0 0.2873771023 -0.6747719256
149108000000.0 0.2352126334 -0.6882205436
149117250000.0 0.2053321069 -0.6943443622
149126500000.0 0.1580605711 -0.7011400341
149135750000.0 0.120118933 -0.7061090851
149145000000.0 0.07343922254 -0.7112227639
149154250000.0 0.0414853346 -0.7172735994
149163500000.0 -0.0007439909842 -0.7223187332
149172750000.0 -0.04526576829 -0.7246320725
149182000000.0 -0.08237060147 -0.7254870175
149191250000.0 -0.1315531184 -0.7226473685
149200500000.0 -0.1724935805 -0.716375259
149209750000.0 -0.2335994671 -0.6977008105
149219000000.0 -0.2969781858 -0.6791497853
149228250000.0 -0.3360769515 -0.6583884143
149237500000.0 -0.3670115415 -0.6436417395
149246750000.0 -0.4265717499 -0.6071131981
149256000000.0 -0.4619528502 -0.5816662901
149265250000.0 -0.5082346406 -0.5414171598
149274500000.0 -0.5435611092 -0.5099996907
149283750000.0 -0.5731963744 -0.4757394378
149293000000.0 -0.6023674641 -0.4393120232
149302250000.0 -0.6315741648 -0.3950594592
149311500000.0 -0.6543982246 -0.3508960458
149320750000.0 -0.6893228282 -0.2791920743
149330000000.0 -0.7027944119 -0.2437769129
149339250000.0 -0.7123759816 -0.1964725487
149348500000.0 -0.7314545142 -0.1239938361
149357750000.0 -0.7366153924 -0.08159508545
149367000000.0 -0.737649766 -0.02614753883
149376250000.0 -0.7354592864 0.02457533745
149385500000.0 -0.734376727 0.09236875964
149394750000.0 -0.7258856772 0.1329054899
149404000000.0 -0.7127015173 0.1992740154
149413250000.0 -0.6967157498 0.2476062368
149422500000.0 -0.6685529331 0.3146608459
149431750000.0 -0.6485912062 0.3558437514
149441000000.0 -0.6169610576 0.4073026934
149450250000.0 -0.5823444484 0.4529049871
149459500000.0 -0.5480230826 0.4959898565
149468750000.0 -0.4991238331 0.5423243414
149478000000.0 -0.4572845727 0.5793363606
149487250000.0 -0.4000277353 0.6177421037
149496500000.0 -0.3453675046 0.6556735974
149505750000.0 -0.2977655722 0.6758223611
149515000000.0 -0.2464509409 0.699658181
149524250000.0 -0.187236733 0.7177726461
149533500000.0 -0.1309800671 0.7289811193
149542750000.0 -0.06219623029 0.7407232287
149552000000.0 -0.01515089982 0.7432449502
149561250000.0 0.06607025285 0.741283212
149570500000.0 0.1361570426 0.7291523055
149579750000.0 0.2001998302 0.7168977645
149589000000.0 0.2731777656 0.6924594817
149598250000.0 0.3246059222 0.6692338035
149607500000.0 0.3864609072 0.6350632649
149616750000.0 0.4428867163 0.5924653605
149626000000.0 0.4889917904 0.5468841304
149635250000.0 0.5344317742 0.5012302343
149644500000.0 0.5616616963 0.4658644562
149653750000.0 0.5909674455 0.4194029907
149663000000.0 0.6237320025 0.3703718291
149672250000.0 0.6422478043 0.3351729753
149681500000.0 0.6622165054 0.2874492048
149690750000.0 0.6736640053 0.2533926494
149700000000.0 0.6963503411 0.1912779263
149709250000.0 0.7094064988 0.1329130629
149718500000.0 0.7139127834 0.1004047922
149727750000.0 0.7189961699 0.03747277798
149737000000.0 0.7215341647 -0.0001179987594
149746250000.0 0.7185877181 -0.05667959456
149755500000.0 0.7117856356 -0.1151039857
149764750000.0 0.6993057345 -0.1757782433
149774000000.0 0.6871159343 -0.2208944878
149783250000.0 0.6598140506 -0.2792285659
149792500000.0 0.6416973312 -0.3117040083
149801750000.0 0.6086275977 -0.3603280213
149811000000.0 0.5809818269 -0.3972566665
149820250000.0 0.5489071927 -0.4249683053
149829500000.0 0.5018705273 -0.4689916699
149838750000.0 0.4721824268 -0.4969055621
149848000000.0 0.4426664989 -0.5174574941
149857250000.0 0.4034549476 -0.5475177309
149866500000.0 0.3599317568 -0.5782254463
149875750000.0 0.3255009869 -0.5970759771
149885000000.0 0.2877268365 -0.6139145762
149894250000.0 0.260736223 -0.6273781994
149903500000.0 0.2096472335 -0.6420447055
149912750000.0 0.1794542393 -0.6517971797
149922000000.0 0.1480858366 -0.6576456913
149931250000.0 0.08630654696 -0.6675320853
149940500000.0 0.05307718049 -0.6710231579
149949750000.0 0.01354153763 -0.6726895821
149959000000.0 -0.02249922853 -0.6691764597
149968250000.0 -0.04973316609 -0.6666038049
149977500000.0 -0.08531666065 -0.6600103865
149986750000.0 -0.1145724629 -0.6549734245
149996000000.0 -0.1594552108 -0.6429553741
150005250000.0 -0.1979795162 -0.6307839606
150014500000.0 -0.232433428 -0.6183459051
150023750000.0 -0.2685120594 -0.6037628787
150033000000.0 -0.2919646475 -0.5882788702
150042250000.0 -0.328376282 -0.5676335606
150051500000.0 -0.3579517376 -0.5481927191
150060750000.0 -0.3860512577 -0.5295612785
150070000000.0 -0.4136192551 -0.5025104328
150079250000.0 -0.4319464702 -0.4866322027
150088500000.0 -0.4561008867 -0.4651374782
150097750000.0 -0.4759897713 -0.4408959188
150107000000.0 -0.4981897761 -0.4130997083
150116250000.0 -0.5217944241 -0.3827219668
150125500000.0 -0.5341274078 -0.3639416012
150134750000.0 -0.5505848533 -0.3357880483
150144000000.0 -0.5757166518 -0.2896421149
150153250000.0 -0.5846076646 -0.2758343228
150162500000.0 -0.5965533306 -0.2492810795
150171750000.0 -0.6067935095 -0.2213451726
150181000000.0 -0.6151445811 -0.1974139323
150190250000.0 -0.6274594248 -0.1577553594
150199500000.0 -0.6335867658 -0.1259748063
150208750000.0 -0.6398085057 -0.09799293275
150218000000.0 -0.6408731715 -0.05316136468
150227250000.0 -0.643297958 -0.008110812042
150236500000.0 -0.6415098013 0.004082616183
150245750000.0 -0.6384577546 0.04143228799
150255000000.0 -0.6371750552 0.0735566225
150264250000.0 -0.6306960427 0.1037004095
150273500000.0 -0.6290735069 0.1306408647
150282750000.0 -0.6242000525 0.1529185726
150292000000.0 -0.6139131672 0.1843741183
150301250000.0 -0.6052831254 0.2158105729
150310500000.0 -0.5884276895 0.260100967
150319750000.0 -0.5826406429 0.2750975526
150329000000.0 -0.5639654547 0.3170891195
150338250000.0 -0.5433567424 0.3544494992
150347500000.0 -0.5307312274 0.3744521558
150356750000.0 -0.5083130834 0.4058954085
150366000000.0 -0.4825763211 0.4365194328
