# GHz S RI R 50.0 
!freq ReS11 ImS11 ReS21 ImS21 ReS12 ImS12 ReS22 ImS22
146.0 -0.4882455804 0.5426037342 -0.02110981569 -0.02633607201 -0.008708679117 -0.03101793118 -0.02110981569 -0.02633607201
146.00925 -0.4480629521 0.5661301156 -0.0216301959 -0.0259936247 -0.008794473484 -0.02983870916 -0.0216301959 -0.0259936247
146.0185 -0.4159362224 0.5905835444 -0.02244820073 -0.02521349117 -0.008997463621 -0.02913789637 -0.02244820073 -0.02521349117
146.02775 -0.3574967203 0.6292418753 -0.0230435878 -0.02444139123 -0.009149959311 -0.02896022983 -0.0230435878 -0.02444139123
146.037 -0.3356232022 0.6419700317 -0.02370820381 -0.02380000986 -0.01045055967 -0.02898717672 -0.02370820381 -0.02380000986
146.04625 -0.2955623064 0.6606493409 -0.02405798249 -0.02358806133 -0.009565537795 -0.02796792239 -0.02405798249 -0.02358806133
146.0555 -0.2334437792 0.6834951688 -0.02448217198 -0.02318012342 -0.01036385354 -0.02780343778 -0.02448217198 -0.02318012342
146.06475 -0.1701150073 0.7015706767 -0.02505148202 -0.02243148535 -0.009514656849 -0.02747862041 -0.02505148202 -0.02243148535
146.074 -0.1451913798 0.7043092342 -0.02565408126 -0.02187008597 -0.01052109804 -0.02685483173 -0.02565408126 -0.02187008597
146.08325 -0.1047327401 0.7091134392 -0.02597094327 -0.02144573629 -0.0100232726 -0.02612071298 -0.02597094327 -0.02144573629
146.0925 -0.04403865163 0.7138378277 -0.02639766224 -0.02114680037 -0.01119244844 -0.02636177652 -0.02639766224 -0.02114680037
146.10175 -0.03869644272 0.7136813649 -0.02697402425 -0.02044404671 -0.01078261528 -0.02558163553 -0.02697402425 -0.02044404671
146.111 0.01242305029 0.7139996445 -0.02751941979 -0.01963645034 -0.01015326474 -0.02547807433 -0.02751941979 -0.01963645034
146.12025 0.05329190301 0.7121583003 -0.02781785838 -0.01894365251 -0.01098426152 -0.02475669608 -0.02781785838 -0.01894365251
146.1295 0.09095450048 0.7087943142 -0.02821323462 -0.01843389682 -0.0110738026 -0.02416318096 -0.02821323462 -0.01843389682
146.13875 0.1430445421 0.7019470047 -0.0286628101 -0.01773837209 -0.01147693302 -0.02401714772 -0.0286628101 -0.01773837209
146.148 0.1765138159 0.6918338418 -0.02897845767 -0.01708492637 -0.01081575267 -0.02358035557 -0.02897845767 -0.01708492637
146.15725 0.2443646876 0.6722714086 -0.0293493662 -0.01653181203 -0.01122133806 -0.02327754907 -0.0293493662 -0.01653181203
146.1665 0.2835876514 0.6564446401 -0.02969367616 -0.01607049257 -0.01142955199 -0.02339746058 -0.02969367616 -0.01607049257
146.17575 0.3162752098 0.6413443212 -0.02996041998 -0.01562424656 -0.01141777355 -0.02265553176 -0.02996041998 -0.01562424656
146.185 0.3629893689 0.6164795522 -0.03032697178 -0.01494426932 -0.01110603102 -0.02175356634 -0.03032697178 -0.01494426932
146.19425 0.406760357 0.5861762379 -0.03069350868 -0.01412506495 -0.01146469917 -0.02158572897 -0.03069350868 -0.01412506495
146.2035 0.434780589 0.5679821677 -0.03097629175 -0.01314633992 -0.01164455805 -0.02132548764 -0.03097629175 -0.01314633992
146.21275 0.4686976945 0.54097278 -0.03132680431 -0.01247753482 -0.01231186837 -0.02104294859 -0.03132680431 -0.01247753482
146.222 0.5049934085 0.5059392302 -0.03159953281 -0.01191306487 -0.01259056199 -0.02013595961 -0.03159953281 -0.01191306487
146.23125 0.5395013531 0.4706624267 -0.03180589899 -0.01118969359 -0.01263481844 -0.01950011589 -0.03180589899 -0.01118969359
146.2405 0.5766481375 0.426555054 -0.03204707801 -0.01036328264 -0.01273582596 -0.01990441792 -0.03204707801 -0.01036328264
146.24975 0.5919842073 0.4021757002 -0.03221296519 -0.009711076505 -0.01257079747 -0.01904347353 -0.03221296519 -0.009711076505
146.259 0.6360254303 0.3239597822 -0.03248514235 -0.009282035753 -0.01298883278 -0.01909765415 -0.03248514235 -0.009282035753
146.26825 0.6448299694 0.3005583034 -0.0327510871 -0.00858885888 -0.0129433535 -0.01859256811 -0.0327510871 -0.00858885888
146.2775 0.6625330943 0.2585355637 -0.0328842774 -0.007686018012 -0.01328477263 -0.01849925891 -0.0328842774 -0.007686018012
146.28675 0.6762127785 0.2101817503 -0.0330126062 -0.006876083091 -0.01330525521 -0.01757085323 -0.0330126062 -0.006876083091
146.296 0.6869292497 0.1687931747 -0.03317387775 -0.006225966848 -0.01341122482 -0.0171878133 -0.03317387775 -0.006225966848
146.30525 0.6943395718 0.1335702984 -0.03334480152 -0.005372348242 -0.01361587271 -0.01697592437 -0.03334480152 -0.005372348242
146.3145 0.7008788165 0.08942132675 -0.0332755968 -0.004325526766 -0.01384697016 -0.01624257676 -0.0332755968 -0.004325526766
146.32375 0.7025672907 0.06901014791 -0.03345452994 -0.003713271581 -0.01371685416 -0.01679844409 -0.03345452994 -0.003713271581
146.333 0.7051574868 0.02951603357 -0.03357044235 -0.003195167053 -0.0140300421 -0.01630771719 -0.03357044235 -0.003195167053
146.34225 0.7073540249 -0.0003010905659 -0.03367792442 -0.002387524815 -0.01429039054 -0.01571865752 -0.03367792442 -0.002387524815
146.3515 0.7079113312 -0.0538731966 -0.03372395784 -0.001668283367 -0.01463822648 -0.01540016569 -0.03372395784 -0.001668283367
146.36075 0.7020332318 -0.08572722589 -0.03372819349 -0.001049016602 -0.01456410252 -0.0148805799 -0.03372819349 -0.001049016602
146.37 0.6982761513 -0.1229449856 -0.03385932744 -0.0002213454281 -0.01528269704 -0.01498633716 -0.03385932744 -0.0002213454281
146.37925 0.6826748133 -0.1931214544 -0.0336965546 0.0004436231102 -0.01497150213 -0.01451536268 -0.0336965546 0.0004436231102
146.3885 0.6769125992 -0.2170178939 -0.03362150118 0.0011269924 -0.01485332567 -0.01425932348 -0.03362150118 0.0011269924
146.39775 0.6599696681 -0.2668084391 -0.03353068605 0.001712238765 -0.01468084659 -0.01380680315 -0.03353068605 0.001712238765
146.407 0.6388827614 -0.3092919023 -0.03353223205 0.002471877495 -0.01447907556 -0.0140313087 -0.03353223205 0.002471877495
146.41625 0.614083649 -0.3562066945 -0.03348367289 0.003166250885 -0.01419478096 -0.0132262893 -0.03348367289 0.003166250885
146.4255 0.5956436483 -0.3861769352 -0.03335861117 0.003778328421 -0.01505743153 -0.01319288462 -0.03335861117 0.003778328421
146.43475 0.5720369221 -0.4150669413 -0.03351555392 0.004295191728 -0.01565687731 -0.01304759178 -0.03351555392 0.004295191728
146.444 0.5370084444 -0.4551925428 -0.03340695053 0.005146570038 -0.0157103762 -0.01236313116 -0.03340695053 0.005146570038
146.45325 0.5164609506 -0.4777961738 -0.03318112716 0.005890643224 -0.01552368421 -0.01284317765 -0.03318112716 0.005890643224
146.4625 0.4908774458 -0.5043427245 -0.03299638256 0.006562105846 -0.01557103544 -0.01230919641 -0.03299638256 0.006562105846
146.47175 0.4648225096 -0.5292780111 -0.03279940784 0.007284674328 -0.01556201372 -0.01180251129 -0.03279940784 0.007284674328
146.481 0.4503139457 -0.5375090762 -0.03264484182 0.008031060919 -0.01580120064 -0.01223100629 -0.03264484182 0.008031060919
146.49025 0.4145139675 -0.5660453326 -0.03244476765 0.008734213188 -0.01605728269 -0.01172316447 -0.03244476765 0.008734213188
146.4995 0.3855819045 -0.5861376682 -0.03231352568 0.009344595484 -0.0158451125 -0.01137337741 -0.03231352568 0.009344595484
146.50875 0.363221527 -0.5989261272 -0.03228672966 0.009821885265 -0.01639228873 -0.01108314935 -0.03228672966 0.009821885265
146.518 0.3271583235 -0.6186790491 -0.03192508966 0.01079299673 -0.01609682105 -0.01145427395 -0.03192508966 0.01079299673
146.52725 0.2923431593 -0.6363360312 -0.0315438956 0.01158622466 -0.01678530313 -0.01106731314 -0.0315438956 0.01158622466
146.5365 0.2693216366 -0.6456693456 -0.03124982491 0.01220453344 -0.01595450751 -0.01064245775 -0.03124982491 0.01220453344
146.54575 0.2182839678 -0.6650840513 -0.03118448518 0.01268381439 -0.01677606255 -0.01016462781 -0.03118448518 0.01268381439
146.555 0.1834031823 -0.6753724865 -0.03091228381 0.01334782504 -0.01663606428 -0.01089001819 -0.03091228381 0.01334782504
146.56425 0.1461835204 -0.6819337811 -0.03059338592 0.01403752621 -0.01706521399 -0.009759276174 -0.03059338592 0.01403752621
146.5735 0.1284217836 -0.6872534469 -0.03037907742 0.01461934205 -0.016705608 -0.01040625758 -0.03037907742 0.01461934205
146.58275 0.0667593656 -0.6957425947 -0.0300931856 0.01530955918 -0.01657710597 -0.01128376555 -0.0300931856 0.01530955918
146.592 0.04983200326 -0.6958841228 -0.02944109403 0.01613290235 -0.0164751038 -0.01015357301 -0.02944109403 0.01613290235
146.60125 -0.007170555658 -0.6991880176 -0.02917562798 0.01666093245 -0.01632854715 -0.009784330614 -0.02917562798 0.01666093245
146.6105 -0.04506090835 -0.698410846 -0.02898804471 0.01723111607 -0.01719894633 -0.01060323603 -0.02898804471 0.01723111607
146.61975 -0.07973972227 -0.6937501416 -0.02856823802 0.017876653 -0.01664871164 -0.01018225774 -0.02856823802 0.017876653
146.629 -0.1141502387 -0.6889815828 -0.02828189358 0.01832103357 -0.01683210395 -0.01001010556 -0.02828189358 0.01832103357
146.63825 -0.1556932694 -0.6820100752 -0.0279274676 0.01886587776 -0.01646221988 -0.01011088211 -0.0279274676 0.01886587776
146.6475 -0.1932265966 -0.6715393936 -0.02745503932 0.01964138448 -0.01650959253 -0.009902927093 -0.02745503932 0.01964138448
146.65675 -0.2333221876 -0.6581491057 -0.02687335946 0.02030302025 -0.01741248555 -0.01047472935 -0.02687335946 0.02030302025
146.666 -0.2669272128 -0.6454443378 -0.02630545758 0.0208614096 -0.01690334827 -0.01029294357 -0.02630545758 0.0208614096
146.67525 -0.3034018974 -0.6288151073 -0.02609649301 0.02129054628 -0.01660810038 -0.009927650914 -0.02609649301 0.02129054628
146.6845 -0.3315589023 -0.6100412581 -0.02568678558 0.02184747159 -0.01676978357 -0.009448272176 -0.02568678558 0.02184747159
146.69375 -0.3685153388 -0.5866091349 -0.02521784417 0.02242257819 -0.01650283672 -0.009527247399 -0.02521784417 0.02242257819
146.703 -0.4028713645 -0.5588259219 -0.02473038808 0.02280782349 -0.01663665287 -0.009761610068 -0.02473038808 0.02280782349
146.71225 -0.4437314818 -0.5176751402 -0.02440050244 0.02319451421 -0.01690540835 -0.01000403333 -0.02440050244 0.02319451421
146.7215 -0.4675778335 -0.4844779328 -0.02387271449 0.02394430898 -0.01634439826 -0.009658846073 -0.02387271449 0.02394430898
146.73075 -0.4821631494 -0.4532434498 -0.02313705161 0.02443063445 -0.01678910665 -0.01020054147 -0.02313705161 0.02443063445
146.74 -0.4981947426 -0.4160859927 -0.02256802097 0.02496167645 -0.01638483442 -0.01004590839 -0.02256802097 0.02496167645
146.74925 -0.4999585247 -0.3968018958 -0.02208528295 0.02525475062 -0.01639033668 -0.01011257712 -0.02208528295 0.02525475062
146.7585 -0.5131923849 -0.3751564147 -0.02162768506 0.02572405897 -0.01613312215 -0.009996424429 -0.02162768506 0.02572405897
146.76775 -0.5241863117 -0.3506671635 -0.02081173845 0.0262662787 -0.01586476527 -0.009839056991 -0.02081173845 0.0262662787
146.777 -0.5444749128 -0.3288739902 -0.0203396529 0.02660884149 -0.01663455553 -0.01033934858 -0.0203396529 0.02660884149
146.78625 -0.5667810812 -0.2884024235 -0.02014619298 0.02708221041 -0.01584054716 -0.009912353009 -0.02014619298 0.02708221041
146.7955 -0.5873070535 -0.2535502042 -0.01948094182 0.0274854321 -0.01541588921 -0.009887288325 -0.01948094182 0.0274854321
146.80475 -0.607301503 -0.2180303937 -0.01883352175 0.02787128277 -0.01530726347 -0.01064726245 -0.01883352175 0.02787128277
146.814 -0.6196517111 -0.1903458418 -0.01816909947 0.0283217337 -0.0148608163 -0.01043041423 -0.01816909947 0.0283217337
146.82325 -0.6340798949 -0.1514637712 -0.01765294001 0.02865720354 -0.0146453632 -0.009999292903 -0.01765294001 0.02865720354
146.8325 -0.6443986927 -0.1152769684 -0.01691825315 0.02894354612 -0.01507816091 -0.01011120901 -0.01691825315 0.02894354612
146.84175 -0.651620569 -0.08222960176 -0.01628162339 0.02927459963 -0.01502354536 -0.01038422436 -0.01628162339 0.02927459963
146.851 -0.6572336467 -0.0362119172 -0.0156955868 0.02968654782 -0.01509772241 -0.01108585391 -0.0156955868 0.02968654782
146.86025 -0.6615316899 0.006635404867 -0.01524530258 0.02999492735 -0.01399409957 -0.0114232963 -0.01524530258 0.02999492735
146.8695 -0.661098652 0.05158236516 -0.01478027739 0.03032562137 -0.01431333274 -0.01116895862 -0.01478027739 0.03032562137
146.87875 -0.6572776761 0.09088275019 -0.01376542915 0.03059095331 -0.0134343747 -0.01053762343 -0.01376542915 0.03059095331
146.888 -0.6496867983 0.1234106405 -0.01298694313 0.03082221188 -0.01322621573 -0.01079548523 -0.01298694313 0.03082221188
146.89725 -0.6266301929 0.1851206454 -0.01262116432 0.03112947568 -0.01273189019 -0.0112119643 -0.01262116432 0.03112947568
146.9065 -0.6200058482 0.2176227521 -0.01212461852 0.03137286752 -0.01318532694 -0.0109191658 -0.01212461852 0.03137286752
146.91575 -0.6106771129 0.2436657123 -0.01144894678 0.03164393082 -0.01306895167 -0.01153086685 -0.01144894678 0.03164393082
146.925 -0.5919494065 0.2929679187 -0.01072207745 0.03184068576 -0.01278627664 -0.01182714291 -0.01072207745 0.03184068576
146.93425 -0.5743326848 0.3281681463 -0.009715453722 0.03202923387 -0.01229125448 -0.01179585606 -0.009715453722 0.03202923387
146.9435 -0.5498074352 0.3681430968 -0.009416118264 0.03224841505 -0.01166334469 -0.01143145841 -0.009416118264 0.03224841505
146.95275 -0.5266587204 0.4067709593 -0.008710480295 0.03241140023 -0.01132686343 -0.0109282881 -0.008710480295 0.03241140023
146.962 -0.4930181547 0.4498579774 -0.008041276596 0.03251240402 -0.01127247605 -0.01168265007 -0.008041276596 0.03251240402
146.97125 -0.4623525666 0.4860247028 -0.007358196191 0.03270925954 -0.01088427845 -0.01207881048 -0.007358196191 0.03270925954
146.9805 -0.4301926916 0.5167310092 -0.006739712786 0.03289987519 -0.01052598003 -0.0119418446 -0.006739712786 0.03289987519
146.98975 -0.4035229994 0.5358172205 -0.006172966212 0.03305922076 -0.01094781514 -0.01260859799 -0.006172966212 0.03305922076
146.999 -0.3788927133 0.5549993806 -0.005357913673 0.03303578869 -0.009890645742 -0.01227303501 -0.005357913673 0.03303578869
147.00825 -0.3194045369 0.5897212377 -0.004648084287 0.03318364173 -0.009566247463 -0.01251720637 -0.004648084287 0.03318364173
147.0175 -0.2952543825 0.601676872 -0.0040322165 0.03328358009 -0.009740122594 -0.0132161621 -0.0040322165 0.03328358009
147.02675 -0.2661801222 0.6172420003 -0.003649563761 0.03344355524 -0.009053231217 -0.01362215821 -0.003649563761 0.03344355524
147.036 -0.2211821582 0.6340966613 -0.002952504903 0.03353369981 -0.008004754782 -0.01313123107 -0.002952504903 0.03353369981
147.04525 -0.1839122677 0.644170233 -0.001994636375 0.03349095955 -0.008693139069 -0.0135014616 -0.001994636375 0.03349095955
147.0545 -0.1407445173 0.6586704137 -0.001192636555 0.03352911398 -0.007607759908 -0.01365271583 -0.001192636555 0.03352911398
147.06375 -0.1022018604 0.6659478023 -0.0005298709148 0.03346097097 -0.00696782209 -0.01384929661 -0.0005298709148 0.03346097097
147.073 -0.05244097345 0.6750836537 7.412309787e-05 0.03361620381 -0.006628021132 -0.01421699394 7.412309787e-05 0.03361620381
147.08225 -0.02386188525 0.6787752184 0.0007562762476 0.03352965415 -0.006547815632 -0.01506959088 0.0007562762476 0.03352965415
147.0915 0.03635735508 0.6766888595 0.001529068919 0.03350063786 -0.005894978065 -0.0142284371 0.001529068919 0.03350063786
147.10075 0.06549977287 0.6777720529 0.001971005462 0.03357895836 -0.005835114513 -0.01432959456 0.001971005462 0.03357895836
147.11 0.1176937591 0.6701146731 0.002671357943 0.03361559659 -0.005491080694 -0.01422950998 0.002671357943 0.03361559659
147.11925 0.1587193212 0.6640006466 0.003664856311 0.03347634524 -0.005062690936 -0.01509072259 0.003664856311 0.03347634524
147.1285 0.2134470754 0.6521089078 0.004460947588 0.03325708583 -0.004547926132 -0.01460438315 0.004460947588 0.03325708583
147.13775 0.2566042587 0.6349417438 0.004984612577 0.03307005391 -0.003901859513 -0.01545013115 0.004984612577 0.03307005391
147.147 0.3098570988 0.6137883351 0.005626456812 0.03314353526 -0.00350332004 -0.01593347266 0.005626456812 0.03314353526
147.15625 0.3602807514 0.5887171211 0.00635033939 0.03301762789 -0.00333836698 -0.01555817202 0.00635033939 0.03301762789
147.1655 0.3851082187 0.5693179841 0.00708383834 0.03286699206 -0.003151158337 -0.01568931155 0.00708383834 0.03286699206
147.17475 0.4283347571 0.5406818691 0.007808148861 0.03271526471 -0.001915911678 -0.01602160744 0.007808148861 0.03271526471
147.184 0.4828251752 0.4949786952 0.008420299739 0.03258116543 -0.003014327493 -0.01649365388 0.008420299739 0.03258116543
147.19325 0.5123349743 0.4680324985 0.009353611618 0.03214741126 -0.002070572693 -0.01696588099 0.009353611618 0.03214741126
147.2025 0.5427719617 0.4256686544 0.01002079248 0.0319625549 -0.001012235065 -0.016885994 0.01002079248 0.0319625549
147.21175 0.5803189556 0.3768018457 0.01058140397 0.03183285519 -0.0008077896782 -0.01707131043 0.01058140397 0.03183285519
147.221 0.607083399 0.3312105418 0.01112179179 0.03172494099 -0.0007334760739 -0.01730272546 0.01112179179 0.03172494099
147.23025 0.6204803794 0.2980419711 0.01195401791 0.03144235164 2.404732004e-05 -0.01729285717 0.01195401791 0.03144235164
147.2395 0.6411104371 0.2520674705 0.01262449566 0.03107928298 0.000330194307 -0.01757277176 0.01262449566 0.03107928298
147.24875 0.6563906777 0.2001097636 0.01343401149 0.03061038256 0.0005090477644 -0.01833309792 0.01343401149 0.03061038256
147.258 0.6657230058 0.1479691763 0.01386829559 0.03042552806 0.0001032488799 -0.01824535429 0.01386829559 0.03042552806
147.26725 0.6772929427 0.09669843353 0.01470513176 0.03011343814 0.001365113771 -0.01789108664 0.01470513176 0.03011343814
147.2765 0.6796199487 0.04983112268 0.01523997448 0.02981894463 0.001961459639 -0.01849349402 0.01523997448 0.02981894463
147.28575 0.6822920746 -0.0001567093972 0.01602536999 0.02938614599 0.001901228447 -0.01923830993 0.01602536999 0.02938614599
147.295 0.6774637063 -0.03369921287 0.01641718298 0.02920037694 0.002701493213 -0.01817544922 0.01641718298 0.02920037694
147.30425 0.6707306618 -0.07875716245 0.01714402065 0.02892876044 0.003327605082 -0.0185511522 0.01714402065 0.02892876044
147.3135 0.6638133984 -0.1227618586 0.01778391004 0.02844793163 0.002816403285 -0.0189896524 0.01778391004 0.02844793163
147.32275 0.6578805617 -0.1495322196 0.01855826564 0.02777913958 0.003263394115 -0.0190086998 0.01855826564 0.02777913958
147.332 0.6385769509 -0.213692865 0.01900441572 0.0274116043 0.003607358085 -0.01928641275 0.01900441572 0.0274116043
147.34125 0.6292872432 -0.2428165087 0.0195515994 0.02718800493 0.004058925435 -0.01911596581 0.0195515994 0.02718800493
147.3505 0.6096039934 -0.2875910851 0.02017024904 0.02667518705 0.004385225475 -0.01879862323 0.02017024904 0.02667518705
147.35975 0.591991252 -0.319983858 0.02078622952 0.02624417096 0.004637742881 -0.01911738142 0.02078622952 0.02624417096
147.369 0.5690892427 -0.3560475194 0.02128147706 0.025780119 0.004828706384 -0.01947885193 0.02128147706 0.025780119
147.37825 0.5351478329 -0.4106216991 0.0217837058 0.02544468641 0.005277039483 -0.0194444824 0.0217837058 0.02544468641
147.3875 0.513148426 -0.4339386062 0.022306256 0.02501649968 0.005611629691 -0.01945875026 0.022306256 0.02501649968
147.39675 0.4861679568 -0.4688714873 0.02286277153 0.02443461493 0.00580025604 -0.01949299872 0.02286277153 0.02443461493
147.406 0.454438654 -0.4973106325 0.02349350043 0.02386851609 0.006178267766 -0.01995249279 0.02349350043 0.02386851609
147.41525 0.4076262566 -0.5380744135 0.02392607369 0.02317490242 0.006530214101 -0.01995664276 0.02392607369 0.02317490242
147.4245 0.3833094597 -0.5593413827 0.02441927791 0.02265632898 0.006800234318 -0.0201716572 0.02441927791 0.02265632898
147.43375 0.3255205359 -0.5940965612 0.02485146932 0.02225863002 0.006460610311 -0.01998665184 0.02485146932 0.02225863002
147.443 0.2814644839 -0.6148583549 0.025314942 0.02173957229 0.006834248547 -0.02017767355 0.025314942 0.02173957229
147.45225 0.2574683618 -0.628776925 0.02588286065 0.02120285667 0.007054795511 -0.02043826506 0.02588286065 0.02120285667
147.4615 0.1979429542 -0.6488339667 0.02613093331 0.02061446011 0.006673378404 -0.01980732009 0.02613093331 0.02061446011
