# GHz S RI R 50.0 
!freq ReS11 ImS11 ReS21 ImS21 ReS12 ImS12 ReS22 ImS22
146.0 -0.6951622521 0.2529366811 -0.01919790544 -0.02761762589 -0.00865048822 -0.02928817086 -0.01919790544 -0.02761762589
146.00925 -0.6614696261 0.3123488804 -0.01984865218 -0.02734754048 -0.008697057143 -0.02875772864 -0.01984865218 -0.02734754048
146.0185 -0.6270468871 0.378152773 -0.02043540217 -0.0269767642 -0.009160337038 -0.02779112756 -0.02043540217 -0.0269767642
146.02775 -0.6037111002 0.4169369927 -0.02114988118 -0.0263465289 -0.009265718982 -0.02777414024 -0.02114988118 -0.0263465289
146.037 -0.5635925787 0.474390483 -0.02179536782 -0.02557669394 -0.01036682818 -0.02772342041 -0.02179536782 -0.02557669394
146.04625 -0.530632355 0.5054144703 -0.02225111239 -0.02535177395 -0.009797746316 -0.02691920102 -0.02225111239 -0.02535177395
146.0555 -0.4875593911 0.5461015697 -0.02267901599 -0.02524568141 -0.01061200351 -0.02710044757 -0.02267901599 -0.02524568141
146.06475 -0.4517578278 0.576259904 -0.02317102626 -0.02453632839 -0.01008072961 -0.0265229363 -0.02317102626 -0.02453632839
146.074 -0.4228718372 0.5980255325 -0.02381331287 -0.02385822684 -0.01072865259 -0.02611374483 -0.02381331287 -0.02385822684
146.08325 -0.3515970289 0.6411310076 -0.02433050238 -0.02319380082 -0.010501476 -0.02544332668 -0.02433050238 -0.02319380082
146.0925 -0.3199243655 0.654246693 -0.02463593706 -0.02310336567 -0.01174525917 -0.02564285509 -0.02463593706 -0.02310336567
146.10175 -0.2774620364 0.6716647189 -0.02518867701 -0.02255148813 -0.01163177658 -0.02519443259 -0.02518867701 -0.02255148813
146.111 -0.2173682622 0.6914459605 -0.02567783184 -0.02195069753 -0.01139674522 -0.0250752382 -0.02567783184 -0.02195069753
146.12025 -0.1661618376 0.7053401559 -0.02617706358 -0.02122303098 -0.01195175014 -0.02427619882 -0.02617706358 -0.02122303098
146.1295 -0.1203410524 0.7157879422 -0.02636577748 -0.02101978287 -0.01135651581 -0.02418418974 -0.02636577748 -0.02101978287
146.13875 -0.07805998351 0.7207879899 -0.02698676661 -0.02051857114 -0.01262634806 -0.02391644008 -0.02698676661 -0.02051857114
146.148 -0.02527720112 0.7268877156 -0.02741103247 -0.01969913207 -0.01194592845 -0.02358008549 -0.02741103247 -0.01969913207
146.15725 0.008847687877 0.7261688742 -0.02789905295 -0.01882512681 -0.01222877298 -0.02323134057 -0.02789905295 -0.01882512681
146.1665 0.07660574566 0.7172085063 -0.02826280519 -0.01844330691 -0.01309595257 -0.02303039841 -0.02826280519 -0.01844330691
146.17575 0.1078256813 0.7155001661 -0.02852174453 -0.01823787205 -0.01293104421 -0.02267050929 -0.02852174453 -0.01823787205
146.185 0.1639290545 0.7050195515 -0.0289166607 -0.01755930297 -0.01259419136 -0.0219455082 -0.0289166607 -0.01755930297
146.19425 0.2155785909 0.6933063958 -0.02926725708 -0.01663796976 -0.01274350565 -0.02195996046 -0.02926725708 -0.01663796976
146.2035 0.2599688084 0.6763505024 -0.02963191457 -0.01597317867 -0.01300916914 -0.02159113437 -0.02963191457 -0.01597317867
146.21275 0.3030051398 0.6580028577 -0.03000331484 -0.01556106191 -0.01348455809 -0.02138149552 -0.03000331484 -0.01556106191
146.222 0.3556388915 0.6287039419 -0.03034809232 -0.01520151645 -0.01366657019 -0.02072691545 -0.03034809232 -0.01520151645
146.23125 0.3882060912 0.6124543503 -0.03073046729 -0.01428736281 -0.01385279 -0.0201900322 -0.03073046729 -0.01428736281
146.2405 0.4490515351 0.569620695 -0.03089451045 -0.01344770938 -0.0138239041 -0.02064567059 -0.03089451045 -0.01344770938
146.24975 0.4832928026 0.542094825 -0.03122919053 -0.01293759979 -0.01392403152 -0.02008392476 -0.03122919053 -0.01293759979
146.259 0.5162777531 0.5108608351 -0.03142514825 -0.01249040104 -0.01459929999 -0.01983202621 -0.03142514825 -0.01249040104
146.26825 0.5565490037 0.4644063086 -0.0317167826 -0.01169001218 -0.01380598545 -0.01990750618 -0.0317167826 -0.01169001218
146.2775 0.5721949348 0.4416376202 -0.03190361708 -0.01066901907 -0.01420210674 -0.01948383264 -0.03190361708 -0.01066901907
146.28675 0.6048107781 0.3931755649 -0.03204323351 -0.01013740059 -0.01468963549 -0.01869891211 -0.03204323351 -0.01013740059
146.296 0.6270334317 0.348421242 -0.03238538653 -0.009724570438 -0.01448135357 -0.01862318441 -0.03238538653 -0.009724570438
146.30525 0.6416151196 0.3173012002 -0.03271674365 -0.008967783302 -0.01473187283 -0.0186562892 -0.03271674365 -0.008967783302
146.3145 0.6603805856 0.2786033133 -0.03277133778 -0.007971359417 -0.01515842136 -0.01795072109 -0.03277133778 -0.007971359417
146.32375 0.6707927961 0.2506712458 -0.03292283416 -0.007290007081 -0.01525886916 -0.01856079884 -0.03292283416 -0.007290007081
146.333 0.6809947223 0.2197164023 -0.03313243017 -0.006981544662 -0.01515418291 -0.0180810038 -0.03313243017 -0.006981544662
146.34225 0.6948827888 0.1713183834 -0.0332140103 -0.006120819133 -0.01524952892 -0.01744033769 -0.0332140103 -0.006120819133
146.3515 0.7057187382 0.1236008826 -0.03330701217 -0.005123870913 -0.01582361199 -0.01707385667 -0.03330701217 -0.005123870913
146.36075 0.7127312459 0.08045564011 -0.03343877196 -0.004672290757 -0.01570507884 -0.01677274145 -0.03343877196 -0.004672290757
146.37 0.7163744136 0.03906565556 -0.03360789642 -0.004103333224 -0.01600126177 -0.01647565141 -0.03360789642 -0.004103333224
146.37925 0.7224091872 0.01602609838 -0.03362074122 -0.003112964565 -0.01626238972 -0.01625905745 -0.03362074122 -0.003112964565
146.3885 0.7172539447 -0.03694217102 -0.03352766857 -0.002259504749 -0.016348565 -0.01640619151 -0.03352766857 -0.002259504749
146.39775 0.7150307776 -0.08818815166 -0.03375390172 -0.00196993351 -0.01622526534 -0.01579768211 -0.03375390172 -0.00196993351
146.407 0.7086201692 -0.1258770963 -0.03371050954 -0.001161176246 -0.01585213467 -0.01614091545 -0.03371050954 -0.001161176246
146.41625 0.7077654355 -0.1452629188 -0.03367362171 -0.0003463455359 -0.01605797745 -0.01543857809 -0.03367362171 -0.0003463455359
146.4255 0.6855084038 -0.2188896713 -0.03367550299 0.0004794921842 -0.01633271016 -0.01566677168 -0.03367550299 0.0004794921842
146.43475 0.6716074454 -0.2539921888 -0.03371506184 0.001089969068 -0.01697731391 -0.01516085584 -0.03371506184 0.001089969068
146.444 0.6533849146 -0.296172448 -0.0337334238 0.001743769157 -0.01665772684 -0.01456973888 -0.0337334238 0.001743769157
146.45325 0.6388211203 -0.3222923716 -0.03371461853 0.00247450266 -0.01666090451 -0.01534636226 -0.03371461853 0.00247450266
146.4625 0.6236861415 -0.3503603667 -0.03354584798 0.003314436879 -0.01680833474 -0.01415270567 -0.03354584798 0.003314436879
146.47175 0.6046457208 -0.3824110488 -0.0335165076 0.004000513814 -0.01679267175 -0.01441814471 -0.0335165076 0.004000513814
146.481 0.578858448 -0.4150662721 -0.03334343806 0.004622178152 -0.01667965762 -0.01464103442 -0.03334343806 0.004622178152
146.49025 0.5638284001 -0.4364717754 -0.03334985673 0.005242594518 -0.01679896191 -0.01383696403 -0.03334985673 0.005242594518
146.4995 0.5372950229 -0.468891142 -0.03316645697 0.006093163975 -0.01643694751 -0.01371758897 -0.03316645697 0.006093163975
146.50875 0.5081341832 -0.4977535329 -0.03295061365 0.006802165415 -0.01700975746 -0.012895477 -0.03295061365 0.006802165415
146.518 0.4810480787 -0.524187298 -0.03276309744 0.007574198302 -0.01655337401 -0.01367316768 -0.03276309744 0.007574198302
146.52725 0.4568973607 -0.5405088864 -0.03258344159 0.008247003891 -0.01692608558 -0.01331922691 -0.03258344159 0.008247003891
146.5365 0.4321572124 -0.5616096359 -0.03261077404 0.008827574551 -0.01636501215 -0.0129246572 -0.03261077404 0.008827574551
146.54575 0.4032587879 -0.58514669 -0.03241951764 0.009532702155 -0.01690156013 -0.01250468381 -0.03241951764 0.009532702155
146.555 0.3745661743 -0.6020423511 -0.03204408661 0.01026135683 -0.01675309986 -0.0131390132 -0.03204408661 0.01026135683
146.56425 0.3413911577 -0.6225280629 -0.03182634339 0.01102518942 -0.01698847674 -0.01248872187 -0.03182634339 0.01102518942
146.5735 0.3047240119 -0.6428921127 -0.03178991377 0.01141632441 -0.01672040112 -0.0129682254 -0.03178991377 0.01141632441
146.58275 0.2707901047 -0.6559486931 -0.03146754578 0.01214405242 -0.01638967171 -0.01347745489 -0.03146754578 0.01214405242
146.592 0.2388015921 -0.6651494966 -0.03104808927 0.01306543965 -0.01628922485 -0.0122524621 -0.03104808927 0.01306543965
146.60125 0.2191481766 -0.6754404678 -0.03087075427 0.01347124577 -0.01587178372 -0.01203225367 -0.03087075427 0.01347124577
146.6105 0.1834223439 -0.6841521577 -0.03084240295 0.01412396878 -0.01653227024 -0.01278705802 -0.03084240295 0.01412396878
146.61975 0.1349303838 -0.6960975068 -0.03036924638 0.01487159729 -0.01619140618 -0.01231363881 -0.03036924638 0.01487159729
146.629 0.09282775721 -0.7040225148 -0.02986216545 0.01553197484 -0.01623728871 -0.01157720853 -0.02986216545 0.01553197484
146.63825 0.06450153859 -0.7065767124 -0.02965778857 0.01610647328 -0.01545512583 -0.0123987142 -0.02965778857 0.01610647328
146.6475 0.02815239059 -0.7112071951 -0.02938379161 0.01667665504 -0.01552065834 -0.01164514385 -0.02938379161 0.01667665504
146.65675 -0.01484878777 -0.7089041411 -0.02896437608 0.017431885 -0.01631349884 -0.01209632214 -0.02896437608 0.017431885
146.666 -0.06913142245 -0.7065714993 -0.02855305932 0.0180429481 -0.015955396 -0.01200739108 -0.02855305932 0.0180429481
146.67525 -0.1049059341 -0.7022402756 -0.02828374878 0.01847635396 -0.01530940924 -0.01156341005 -0.02828374878 0.01847635396
146.6845 -0.1510144249 -0.6935402799 -0.02793959528 0.01903239824 -0.01581976935 -0.01098264381 -0.02793959528 0.01903239824
146.69375 -0.2019508965 -0.6786618692 -0.02748480439 0.01969455183 -0.01523485873 -0.01111660711 -0.02748480439 0.01969455183
146.703 -0.2475263499 -0.6602422981 -0.02708359063 0.02017248422 -0.0151992999 -0.01173701603 -0.02708359063 0.02017248422
146.71225 -0.2821931878 -0.6419989854 -0.0266632475 0.02082190104 -0.01507609989 -0.01119839493 -0.0266632475 0.02082190104
146.7215 -0.3111000308 -0.6201524485 -0.02600958385 0.0214108862 -0.01496650185 -0.01086830627 -0.02600958385 0.0214108862
146.73075 -0.3449505639 -0.5897230693 -0.02555710264 0.02204648219 -0.01506124809 -0.01168463938 -0.02555710264 0.02204648219
146.74 -0.3597456358 -0.5686662787 -0.02522845566 0.02245408669 -0.01462716889 -0.01136568841 -0.02522845566 0.02245408669
146.74925 -0.3796269121 -0.5349685805 -0.02486217208 0.02289871313 -0.01479642093 -0.01115274522 -0.02486217208 0.02289871313
146.7585 -0.3921929699 -0.5164964911 -0.02418565005 0.02348447032 -0.01433626469 -0.0111284405 -0.02418565005 0.02348447032
146.76775 -0.4179451248 -0.4877209966 -0.02349509671 0.02398831211 -0.01417182107 -0.01068903878 -0.02349509671 0.02398831211
146.777 -0.4355323996 -0.4676691328 -0.02315816469 0.02439985611 -0.01438074466 -0.01132389531 -0.02315816469 0.02439985611
146.78625 -0.4630578822 -0.445567472 -0.02295687795 0.02489078604 -0.01391871274 -0.01049517281 -0.02295687795 0.02489078604
146.7955 -0.4901482487 -0.4178509371 -0.02204683051 0.02544577606 -0.01328293327 -0.01069028862 -0.02204683051 0.02544577606
146.80475 -0.5150465857 -0.3935466798 -0.02139930055 0.02590853348 -0.01330831461 -0.01098893024 -0.02139930055 0.02590853348
146.814 -0.5351971811 -0.3757792368 -0.02108745836 0.02625234984 -0.01283132285 -0.01095298491 -0.02108745836 0.02625234984
146.82325 -0.5603510647 -0.3399622456 -0.02084654197 0.02662170306 -0.0120914299 -0.009938410483 -0.02084654197 0.02662170306
146.8325 -0.5840321829 -0.310485451 -0.02016348578 0.02706625313 -0.01279653236 -0.0106261 -0.02016348578 0.02706625313
146.84175 -0.6107233966 -0.2629941557 -0.01936915889 0.02751698904 -0.01262945496 -0.010331681 -0.01936915889 0.02751698904
146.851 -0.6308942102 -0.2191803357 -0.01855679229 0.02799328975 -0.01262140088 -0.01093280688 -0.01855679229 0.02799328975
146.86025 -0.6403349563 -0.1877322574 -0.01825037226 0.02830158174 -0.01147382706 -0.01105466019 -0.01825037226 0.02830158174
146.8695 -0.655648307 -0.1381214577 -0.01788522862 0.02877834067 -0.01178139914 -0.01087114122 -0.01788522862 0.02877834067
146.87875 -0.6615296469 -0.0971411226 -0.01718803123 0.02901361138 -0.01104008034 -0.01053223573 -0.01718803123 0.02901361138
146.888 -0.6680246509 -0.05247566861 -0.01648835465 0.029399205 -0.01066831965 -0.01033332665 -0.01648835465 0.029399205
146.89725 -0.6716105451 -0.01356337621 -0.0157111343 0.02961087227 -0.009845453314 -0.010441361 -0.0157111343 0.02961087227
146.9065 -0.6667790771 0.02958958026 -0.01536501199 0.02995094843 -0.01042897068 -0.01016671397 -0.01536501199 0.02995094843
146.91575 -0.6635263973 0.0642931563 -0.01473592035 0.03026432171 -0.01036652364 -0.01051168051 -0.01473592035 0.03026432171
146.925 -0.6587602336 0.1029517338 -0.0141548235 0.03057685867 -0.01003811788 -0.01095979847 -0.0141548235 0.03057685867
146.93425 -0.6542862843 0.1299771834 -0.01334096864 0.03081636503 -0.009806507267 -0.01068632584 -0.01334096864 0.03081636503
146.9435 -0.6463805787 0.1856634749 -0.01288929582 0.0310456343 -0.009078483097 -0.0102914758 -0.01288929582 0.0310456343
146.95275 -0.6393735658 0.2122549004 -0.01202502847 0.0313320756 -0.008490792476 -0.009986963123 -0.01202502847 0.0313320756
146.962 -0.6187990203 0.268407657 -0.01134509593 0.03161836788 -0.008671295829 -0.01034308318 -0.01134509593 0.03161836788
146.97125 -0.5974434992 0.3176120477 -0.01078111865 0.03189024329 -0.008457371965 -0.01061771903 -0.01078111865 0.03189024329
146.9805 -0.5856593681 0.3450106552 -0.01030962076 0.03212767839 -0.007901966572 -0.01053435542 -0.01030962076 0.03212767839
146.98975 -0.5560171287 0.3857665813 -0.009584789164 0.03229756653 -0.007973473519 -0.01111094933 -0.009584789164 0.03229756653
146.999 -0.5378322871 0.4197494491 -0.008722376078 0.03242171556 -0.007469006348 -0.0108266538 -0.008722376078 0.03242171556
147.00825 -0.5141205244 0.4458490488 -0.008111335337 0.03250278533 -0.006967786234 -0.01080124546 -0.008111335337 0.03250278533
147.0175 -0.4861432299 0.4721227934 -0.007365568541 0.03269192949 -0.007088286802 -0.01120057795 -0.007365568541 0.03269192949
147.02675 -0.4464913847 0.5142525774 -0.006949308328 0.03300942853 -0.006740555167 -0.01169899385 -0.006949308328 0.03300942853
147.036 -0.4192043653 0.5327146281 -0.006171428598 0.03319296613 -0.005601970013 -0.0110298302 -0.006171428598 0.03319296613
147.04525 -0.3876209935 0.5577454055 -0.005245826673 0.03309974074 -0.006348534022 -0.01114929654 -0.005245826673 0.03309974074
147.0545 -0.3406851024 0.5856917386 -0.004561314359 0.03323641792 -0.005273415241 -0.01131904032 -0.004561314359 0.03323641792
147.06375 -0.3116969636 0.6057606153 -0.004086879082 0.03337794915 -0.004629945382 -0.01167663187 -0.004086879082 0.03337794915
147.073 -0.2744495809 0.6252701428 -0.003428066848 0.03356422111 -0.004507507663 -0.01124286093 -0.003428066848 0.03356422111
147.08225 -0.2264421907 0.6451853041 -0.002559372224 0.03353279829 -0.004324707668 -0.01242002845 -0.002559372224 0.03353279829
147.0915 -0.1854870051 0.6606234869 -0.001729523065 0.03348618001 -0.004341492895 -0.01163553726 -0.001729523065 0.03348618001
147.10075 -0.1409987254 0.669418727 -0.001325641526 0.03362142667 -0.00363262021 -0.01185803674 -0.001325641526 0.03362142667
147.11 -0.09923642834 0.679624105 -0.0007170806639 0.03378883377 -0.003496138379 -0.01164304838 -0.0007170806639 0.03378883377
147.11925 -0.03315895467 0.6886919751 0.0001942638337 0.03370696306 -0.00318105286 -0.01205110177 0.0001942638337 0.03370696306
147.1285 0.008224266968 0.6858657815 0.0009910234949 0.03360337391 -0.002701713471 -0.01173440926 0.0009910234949 0.03360337391
147.13775 0.05079057587 0.6893793971 0.001616410678 0.03352307156 -0.002376516815 -0.01292816363 0.001616410678 0.03352307156
147.147 0.0954466252 0.6846900207 0.002080993727 0.0336561352 -0.00193651719 -0.01242094487 0.002080993727 0.0336561352
147.15625 0.1393338157 0.6822507222 0.003006398678 0.03355630115 -0.002173289424 -0.01232345682 0.003006398678 0.03355630115
147.1655 0.1773989123 0.6727397404 0.003903030418 0.03340581059 -0.001884450903 -0.01234961767 0.003903030418 0.03340581059
147.17475 0.2334173615 0.6533708957 0.004516468849 0.03324694932 -0.0007369699888 -0.0130658038 0.004516468849 0.03324694932
147.184 0.2834914912 0.6311281647 0.004949066322 0.03328512236 -0.001525108586 -0.01337327342 0.004949066322 0.03328512236
147.19325 0.3271846354 0.6136225733 0.005617541727 0.03322055936 -0.0007663738215 -0.01400388125 0.005617541727 0.03322055936
147.2025 0.3727181376 0.5903577617 0.006522499491 0.03294827417 -7.991884195e-05 -0.01372694597 0.006522499491 0.03294827417
147.21175 0.4212427851 0.5547755705 0.007214997895 0.03277761489 0.0001467454131 -0.01388330385 0.007214997895 0.03277761489
147.221 0.4597947057 0.5209394438 0.007827302441 0.032728903 0.0002321403445 -0.01390537899 0.007827302441 0.032728903
147.23025 0.4994584213 0.4798451254 0.008464472368 0.03262681141 0.0005651632673 -0.01389586087 0.008464472368 0.03262681141
147.2395 0.528860859 0.4495798173 0.009101503529 0.03237024322 0.0009608917171 -0.01430222485 0.009101503529 0.03237024322
147.24875 0.5719749287 0.3929151575 0.009800311178 0.03205912933 0.0007698839181 -0.01496495958 0.009800311178 0.03205912933
147.258 0.5912488109 0.3638172622 0.01047479268 0.03180814907 0.0003217599005 -0.01498683076 0.01047479268 0.03180814907
147.26725 0.6059400439 0.3272368367 0.01114047226 0.03162730113 0.001889703912 -0.01448396221 0.01114047226 0.03162730113
147.2765 0.6311240788 0.2714707991 0.0117705781 0.03135573864 0.001693815459 -0.01524698641 0.0117705781 0.03135573864
147.28575 0.6446903434 0.23626402 0.01261687372 0.03113054857 0.001858892385 -0.01592021622 0.01261687372 0.03113054857
147.295 0.6520515639 0.2002997945 0.01320528612 0.03090574779 0.002293163212 -0.01541245822 0.01320528612 0.03090574779
147.30425 0.6657816177 0.1501807196 0.01388336997 0.03051364049 0.003001400735 -0.01566324942 0.01388336997 0.03051364049
147.3135 0.6712640867 0.1035372542 0.01445592567 0.03024275787 0.002311903751 -0.01594029739 0.01445592567 0.03024275787
147.32275 0.6789409098 0.05710449576 0.01516872365 0.02988695912 0.002475375775 -0.01596229523 0.01516872365 0.02988695912
147.332 0.6794638381 0.01118180901 0.01560736168 0.0297285039 0.00291562709 -0.01612505503 0.01560736168 0.0297285039
147.34125 0.6816376218 -0.02899821274 0.01626190729 0.02935470082 0.002650937531 -0.01606997848 0.01626190729 0.02935470082
147.3505 0.6753715706 -0.06930324274 0.01702608727 0.02884319797 0.003457123414 -0.01600756682 0.01702608727 0.02884319797
147.35975 0.6667344137 -0.09867024563 0.0176671762 0.02852413431 0.003543539206 -0.01612797193 0.0176671762 0.02852413431
147.369 0.6589122583 -0.1569200691 0.01807619818 0.02814013138 0.003862527432 -0.01701908186 0.01807619818 0.02814013138
147.37825 0.6497971183 -0.1984845861 0.01869919524 0.02787065133 0.003901365679 -0.01641738974 0.01869919524 0.02787065133
147.3875 0.633839741 -0.2419650155 0.01941169798 0.02736102417 0.004097887781 -0.01693494245 0.01941169798 0.02736102417
147.39675 0.618177114 -0.2831374245 0.02004063688 0.02696185559 0.004007084295 -0.01711144112 0.02004063688 0.02696185559
147.406 0.5919509563 -0.3347450801 0.02053170279 0.02653447725 0.004683099221 -0.01783880033 0.02053170279 0.02653447725
147.41525 0.5662028521 -0.3800567799 0.02102795057 0.02611266263 0.004597532563 -0.01725386828 0.02102795057 0.02611266263
147.4245 0.546413333 -0.407094769 0.02159062773 0.02558324486 0.004748012871 -0.01794653572 0.02159062773 0.02558324486
147.43375 0.5045628363 -0.4573072919 0.02215984277 0.02512519248 0.004573501181 -0.01757994667 0.02215984277 0.02512519248
147.443 0.4698532018 -0.4951296632 0.02253326774 0.02460971475 0.004761039745 -0.01763244532 0.02253326774 0.02460971475
147.45225 0.4461515483 -0.5197204286 0.02319573984 0.02423015609 0.004748969804 -0.01828137226 0.02319573984 0.02423015609
147.4615 0.3940894037 -0.5591914363 0.02361122333 0.02368801646 0.004494420253 -0.01801121049 0.02361122333 0.02368801646
